!Agilent Technologies,E8361A,US43140881,A.06.04.32
!Agilent E8361A: A.06.04.32
!Date: Friday, January 01, 1988 02:57:17
!Correction: S11(Full 1 Port(1)) 
!S1P File: Measurement: S11:
# Hz S  RI   R 50
35000000000  6.150922e-001  -6.195454e-002 
35010000000  6.127424e-001  -7.339589e-002 
35020000000  6.097437e-001  -8.506422e-002 
35030000000  6.061026e-001  -9.673286e-002 
35040000000  6.023732e-001  -1.074265e-001 
35050000000  5.978687e-001  -1.186944e-001 
35060000000  5.927294e-001  -1.288858e-001 
35070000000  5.883052e-001  -1.399115e-001 
35080000000  5.826944e-001  -1.522073e-001 
35090000000  5.781051e-001  -1.635889e-001 
35100000000  5.735319e-001  -1.748522e-001 
35110000000  5.680526e-001  -1.866261e-001 
35120000000  5.633749e-001  -1.968240e-001 
35130000000  5.580458e-001  -2.076447e-001 
35140000000  5.522025e-001  -2.169782e-001 
35150000000  5.470720e-001  -2.269957e-001 
35160000000  5.408131e-001  -2.361055e-001 
35170000000  5.336419e-001  -2.455579e-001 
35180000000  5.266319e-001  -2.546928e-001 
35190000000  5.189444e-001  -2.643642e-001 
35200000000  5.120744e-001  -2.745234e-001 
35210000000  5.041895e-001  -2.842527e-001 
35220000000  4.973430e-001  -2.932041e-001 
35230000000  4.896629e-001  -3.028951e-001 
35240000000  4.825159e-001  -3.118778e-001 
35250000000  4.754566e-001  -3.194764e-001 
35260000000  4.673165e-001  -3.284665e-001 
35270000000  4.589424e-001  -3.356462e-001 
35280000000  4.506912e-001  -3.420227e-001 
35290000000  4.422980e-001  -3.499286e-001 
35300000000  4.325548e-001  -3.570991e-001 
35310000000  4.231051e-001  -3.641877e-001 
35320000000  4.137694e-001  -3.720428e-001 
35330000000  4.054054e-001  -3.785977e-001 
35340000000  3.963150e-001  -3.865938e-001 
35350000000  3.868846e-001  -3.932345e-001 
35360000000  3.778526e-001  -3.997736e-001 
35370000000  3.687457e-001  -4.060256e-001 
35380000000  3.596551e-001  -4.113760e-001 
35390000000  3.501667e-001  -4.166676e-001 
35400000000  3.394358e-001  -4.212516e-001 
35410000000  3.292446e-001  -4.252423e-001 
35420000000  3.185420e-001  -4.310172e-001 
35430000000  3.077907e-001  -4.353530e-001 
35440000000  2.975920e-001  -4.405849e-001 
35450000000  2.864098e-001  -4.451614e-001 
35460000000  2.750433e-001  -4.496979e-001 
35470000000  2.653101e-001  -4.532776e-001 
35480000000  2.542466e-001  -4.568544e-001 
35490000000  2.442080e-001  -4.588855e-001 
35500000000  2.341650e-001  -4.609247e-001 
35510000000  2.236154e-001  -4.626686e-001 
35520000000  2.124717e-001  -4.641194e-001 
35530000000  2.013013e-001  -4.657573e-001 
35540000000  1.903034e-001  -4.672870e-001 
35550000000  1.796409e-001  -4.688990e-001 
35560000000  1.687394e-001  -4.704618e-001 
35570000000  1.577566e-001  -4.714926e-001 
35580000000  1.475745e-001  -4.724947e-001 
35590000000  1.368463e-001  -4.727586e-001 
35600000000  1.269849e-001  -4.733953e-001 
35610000000  1.170863e-001  -4.723848e-001 
35620000000  1.078310e-001  -4.717051e-001 
35630000000  9.719085e-002  -4.712269e-001 
35640000000  8.628348e-002  -4.700086e-001 
35650000000  7.537893e-002  -4.688852e-001 
35660000000  6.394266e-002  -4.675696e-001 
35670000000  5.298066e-002  -4.659781e-001 
35680000000  4.170619e-002  -4.634501e-001 
35690000000  3.201079e-002  -4.610798e-001 
35700000000  2.396659e-002  -4.582118e-001 
35710000000  1.549502e-002  -4.564128e-001 
35720000000  6.377345e-003  -4.543431e-001 
35730000000  -3.116968e-003  -4.514521e-001 
35740000000  -1.315000e-002  -4.478760e-001 
35750000000  -2.335447e-002  -4.434166e-001 
35760000000  -3.261941e-002  -4.387061e-001 
35770000000  -4.207893e-002  -4.351493e-001 
35780000000  -5.039646e-002  -4.297406e-001 
35790000000  -5.883507e-002  -4.259742e-001 
35800000000  -6.750539e-002  -4.221060e-001 
35810000000  -7.579638e-002  -4.182779e-001 
35820000000  -8.453606e-002  -4.131992e-001 
35830000000  -9.149473e-002  -4.084702e-001 
35840000000  -9.949844e-002  -4.033396e-001 
35850000000  -1.070693e-001  -3.970475e-001 
35860000000  -1.144389e-001  -3.910730e-001 
35870000000  -1.221210e-001  -3.842318e-001 
35880000000  -1.288342e-001  -3.780893e-001 
35890000000  -1.354217e-001  -3.723572e-001 
35900000000  -1.429484e-001  -3.658034e-001 
35910000000  -1.493955e-001  -3.598485e-001 
35920000000  -1.561462e-001  -3.536450e-001 
35930000000  -1.614465e-001  -3.466231e-001 
35940000000  -1.664226e-001  -3.403465e-001 
35950000000  -1.722531e-001  -3.331684e-001 
35960000000  -1.765686e-001  -3.262518e-001 
35970000000  -1.819967e-001  -3.199736e-001 
35980000000  -1.876850e-001  -3.122091e-001 
35990000000  -1.919469e-001  -3.058385e-001 
36000000000  -1.971607e-001  -2.982910e-001 
36010000000  -1.999273e-001  -2.917243e-001 
36020000000  -2.029329e-001  -2.838598e-001 
36030000000  -2.057283e-001  -2.759534e-001 
36040000000  -2.087844e-001  -2.672815e-001 
36050000000  -2.126408e-001  -2.586581e-001 
36060000000  -2.168991e-001  -2.518141e-001 
36070000000  -2.202720e-001  -2.462024e-001 
36080000000  -2.216456e-001  -2.390794e-001 
36090000000  -2.229761e-001  -2.315342e-001 
36100000000  -2.242738e-001  -2.250461e-001 
36110000000  -2.237801e-001  -2.163813e-001 
36120000000  -2.264957e-001  -2.071600e-001 
36130000000  -2.296510e-001  -1.998461e-001 
36140000000  -2.311850e-001  -1.937920e-001 
36150000000  -2.308902e-001  -1.876925e-001 
36160000000  -2.313097e-001  -1.804089e-001 
36170000000  -2.301841e-001  -1.736826e-001 
36180000000  -2.293512e-001  -1.655735e-001 
36190000000  -2.307328e-001  -1.576544e-001 
36200000000  -2.306115e-001  -1.516737e-001 
36210000000  -2.308996e-001  -1.456743e-001 
36220000000  -2.295529e-001  -1.390387e-001 
36230000000  -2.289976e-001  -1.329304e-001 
36240000000  -2.269634e-001  -1.264270e-001 
36250000000  -2.251513e-001  -1.206333e-001 
36260000000  -2.234499e-001  -1.137987e-001 
36270000000  -2.225733e-001  -1.071889e-001 
36280000000  -2.212626e-001  -1.014090e-001 
36290000000  -2.201283e-001  -9.688088e-002 
36300000000  -2.177824e-001  -9.310785e-002 
36310000000  -2.142342e-001  -8.890779e-002 
36320000000  -2.105857e-001  -8.222371e-002 
36330000000  -2.085339e-001  -7.560588e-002 
36340000000  -2.081227e-001  -7.034334e-002 
36350000000  -2.056354e-001  -6.639062e-002 
36360000000  -2.034628e-001  -6.189695e-002 
36370000000  -2.015155e-001  -5.745650e-002 
36380000000  -1.975195e-001  -5.438042e-002 
36390000000  -1.935485e-001  -5.028631e-002 
36400000000  -1.900705e-001  -4.506306e-002 
36410000000  -1.881032e-001  -4.214790e-002 
36420000000  -1.841460e-001  -3.917570e-002 
36430000000  -1.822613e-001  -3.627534e-002 
36440000000  -1.783037e-001  -3.403845e-002 
36450000000  -1.740263e-001  -3.034971e-002 
36460000000  -1.706957e-001  -2.693903e-002 
36470000000  -1.669519e-001  -2.266155e-002 
36480000000  -1.658365e-001  -1.983684e-002 
36490000000  -1.631121e-001  -1.852979e-002 
36500000000  -1.605890e-001  -1.746780e-002 
36510000000  -1.570590e-001  -1.562497e-002 
36520000000  -1.543209e-001  -1.465943e-002 
36530000000  -1.508475e-001  -1.182518e-002 
36540000000  -1.481445e-001  -1.092426e-002 
36550000000  -1.448504e-001  -9.428536e-003 
36560000000  -1.430347e-001  -9.281009e-003 
36570000000  -1.403517e-001  -6.597605e-003 
36580000000  -1.372823e-001  -6.530542e-003 
36590000000  -1.338175e-001  -5.533197e-003 
36600000000  -1.328836e-001  -5.446246e-003 
36610000000  -1.295789e-001  -4.640111e-003 
36620000000  -1.278791e-001  -4.370658e-003 
36630000000  -1.251390e-001  -5.218014e-003 
36640000000  -1.229289e-001  -4.165050e-003 
36650000000  -1.212190e-001  -4.264430e-003 
36660000000  -1.192614e-001  -5.143139e-003 
36670000000  -1.162460e-001  -3.856678e-003 
36680000000  -1.135806e-001  -2.977011e-003 
36690000000  -1.101567e-001  -2.572148e-003 
36700000000  -1.078034e-001  -2.864534e-003 
36710000000  -1.050461e-001  -2.465359e-003 
36720000000  -1.028599e-001  -1.954665e-003 
36730000000  -1.008192e-001  -2.691966e-003 
36740000000  -1.000838e-001  -3.513937e-003 
36750000000  -9.948946e-002  -3.921596e-003 
36760000000  -9.716276e-002  -3.992587e-003 
36770000000  -9.705983e-002  -5.610665e-003 
36780000000  -9.672043e-002  -5.198814e-003 
36790000000  -9.563104e-002  -4.486228e-003 
36800000000  -9.362739e-002  -5.149036e-003 
36810000000  -9.360296e-002  -4.809482e-003 
36820000000  -9.189295e-002  -3.989509e-003 
36830000000  -8.944044e-002  -4.608017e-003 
36840000000  -8.921710e-002  -5.733162e-003 
36850000000  -8.875542e-002  -6.355237e-003 
36860000000  -8.821409e-002  -7.264305e-003 
36870000000  -8.820678e-002  -8.503944e-003 
36880000000  -8.787191e-002  -9.719868e-003 
36890000000  -8.800864e-002  -1.042498e-002 
36900000000  -8.797833e-002  -1.067679e-002 
36910000000  -8.748316e-002  -1.094887e-002 
36920000000  -8.593915e-002  -1.062121e-002 
36930000000  -8.514190e-002  -1.055565e-002 
36940000000  -8.335212e-002  -1.115001e-002 
36950000000  -8.384661e-002  -1.201442e-002 
36960000000  -8.414358e-002  -1.222155e-002 
36970000000  -8.402079e-002  -1.254046e-002 
36980000000  -8.560851e-002  -1.351079e-002 
36990000000  -8.682317e-002  -1.282878e-002 
37000000000  -8.649455e-002  -1.255132e-002 
37010000000  -8.647013e-002  -1.351123e-002 
37020000000  -8.704515e-002  -1.334556e-002 
37030000000  -8.675493e-002  -1.259333e-002 
37040000000  -8.610030e-002  -1.183443e-002 
37050000000  -8.586778e-002  -1.212709e-002 
37060000000  -8.632315e-002  -1.091848e-002 
37070000000  -8.606487e-002  -9.969912e-003 
37080000000  -8.569971e-002  -9.246975e-003 
37090000000  -8.556305e-002  -9.917687e-003 
37100000000  -8.749378e-002  -1.065302e-002 
37110000000  -8.819441e-002  -8.687932e-003 
37120000000  -8.726822e-002  -9.367504e-003 
37130000000  -8.743689e-002  -1.067835e-002 
37140000000  -8.941863e-002  -1.017335e-002 
37150000000  -8.851711e-002  -8.626805e-003 
37160000000  -8.760818e-002  -8.514251e-003 
37170000000  -8.802006e-002  -8.675843e-003 
37180000000  -8.928731e-002  -7.311488e-003 
37190000000  -9.016000e-002  -6.167385e-003 
37200000000  -9.064542e-002  -5.686739e-003 
37210000000  -9.156376e-002  -5.577757e-003 
37220000000  -9.332810e-002  -4.787367e-003 
37230000000  -9.365298e-002  -3.633078e-003 
37240000000  -9.327295e-002  -3.974608e-003 
37250000000  -9.366217e-002  -3.051626e-003 
37260000000  -9.267046e-002  -2.054462e-003 
37270000000  -9.220358e-002  -2.079262e-003 
37280000000  -9.230846e-002  -4.844008e-004 
37290000000  -9.158757e-002  9.535715e-004 
37300000000  -9.158996e-002  2.042467e-003 
37310000000  -9.185975e-002  2.460181e-003 
37320000000  -9.345655e-002  2.879418e-003 
37330000000  -9.436145e-002  4.408869e-003 
37340000000  -9.443834e-002  5.186650e-003 
37350000000  -9.388550e-002  5.280366e-003 
37360000000  -9.504695e-002  5.776881e-003 
37370000000  -9.417068e-002  7.343337e-003 
37380000000  -9.268117e-002  7.536547e-003 
37390000000  -9.335993e-002  7.397221e-003 
37400000000  -9.336124e-002  1.017650e-002 
37410000000  -9.245856e-002  1.210000e-002 
37420000000  -9.173491e-002  1.291792e-002 
37430000000  -9.273493e-002  1.386900e-002 
37440000000  -9.285632e-002  1.512532e-002 
37450000000  -9.280323e-002  1.590704e-002 
37460000000  -9.331825e-002  1.624672e-002 
37470000000  -9.335184e-002  1.679827e-002 
37480000000  -9.308412e-002  1.842372e-002 
37490000000  -9.148862e-002  1.927752e-002 
37500000000  -9.016342e-002  1.976473e-002 
37510000000  -8.969875e-002  2.056403e-002 
37520000000  -8.912812e-002  2.213985e-002 
37530000000  -8.765672e-002  2.269732e-002 
37540000000  -8.808140e-002  2.261444e-002 
37550000000  -8.915615e-002  2.343022e-002 
37560000000  -8.963586e-002  2.523904e-002 
37570000000  -8.940321e-002  2.601588e-002 
37580000000  -8.907039e-002  2.597217e-002 
37590000000  -8.870990e-002  2.731759e-002 
37600000000  -8.689480e-002  2.762622e-002 
37610000000  -8.574580e-002  2.830521e-002 
37620000000  -8.483616e-002  2.868300e-002 
37630000000  -8.413262e-002  2.992723e-002 
37640000000  -8.312122e-002  3.150032e-002 
37650000000  -8.191116e-002  3.223486e-002 
37660000000  -8.084801e-002  3.289073e-002 
37670000000  -8.151124e-002  3.306464e-002 
37680000000  -8.090443e-002  3.355189e-002 
37690000000  -8.153710e-002  3.270589e-002 
37700000000  -8.186630e-002  3.329831e-002 
37710000000  -8.081506e-002  3.468030e-002 
37720000000  -7.935660e-002  3.465980e-002 
37730000000  -7.864325e-002  3.481251e-002 
37740000000  -7.820685e-002  3.660268e-002 
37750000000  -7.695188e-002  3.784358e-002 
37760000000  -7.571604e-002  3.852434e-002 
37770000000  -7.535995e-002  3.958369e-002 
37780000000  -7.514890e-002  4.059263e-002 
37790000000  -7.463970e-002  4.131192e-002 
37800000000  -7.366141e-002  4.198961e-002 
37810000000  -7.323113e-002  4.228200e-002 
37820000000  -7.258172e-002  4.271628e-002 
37830000000  -7.118973e-002  4.282710e-002 
37840000000  -6.898043e-002  4.326674e-002 
37850000000  -6.809939e-002  4.297773e-002 
37860000000  -6.786841e-002  4.389162e-002 
37870000000  -6.757437e-002  4.523907e-002 
37880000000  -6.626600e-002  4.577181e-002 
37890000000  -6.566431e-002  4.642750e-002 
37900000000  -6.635053e-002  4.686628e-002 
37910000000  -6.595774e-002  4.846772e-002 
37920000000  -6.485140e-002  4.853940e-002 
37930000000  -6.349893e-002  4.819467e-002 
37940000000  -6.301861e-002  4.827160e-002 
37950000000  -6.166910e-002  4.926005e-002 
37960000000  -5.894745e-002  4.934760e-002 
37970000000  -5.797620e-002  4.845209e-002 
37980000000  -5.768799e-002  4.916042e-002 
37990000000  -5.667483e-002  5.086719e-002 
38000000000  -5.602153e-002  5.120072e-002 
38010000000  -5.561120e-002  5.306775e-002 
38020000000  -5.434864e-002  5.440710e-002 
38030000000  -5.329309e-002  5.548603e-002 
38040000000  -5.307427e-002  5.700045e-002 
38050000000  -5.253837e-002  5.795784e-002 
38060000000  -5.296639e-002  5.766872e-002 
38070000000  -5.299310e-002  5.791934e-002 
38080000000  -5.223297e-002  5.664293e-002 
38090000000  -5.212390e-002  5.592264e-002 
38100000000  -5.170223e-002  5.612194e-002 
38110000000  -4.933539e-002  5.546650e-002 
38120000000  -4.845168e-002  5.413461e-002 
38130000000  -4.846698e-002  5.435481e-002 
38140000000  -4.749570e-002  5.546209e-002 
38150000000  -4.612588e-002  5.533494e-002 
38160000000  -4.557033e-002  5.510197e-002 
38170000000  -4.481604e-002  5.603504e-002 
38180000000  -4.304904e-002  5.677925e-002 
38190000000  -4.174379e-002  5.657205e-002 
38200000000  -4.014181e-002  5.718800e-002 
38210000000  -3.860060e-002  5.733001e-002 
38220000000  -3.728993e-002  5.646711e-002 
38230000000  -3.711144e-002  5.598429e-002 
38240000000  -3.758675e-002  5.571182e-002 
38250000000  -3.748099e-002  5.641368e-002 
38260000000  -3.684972e-002  5.620849e-002 
38270000000  -3.682340e-002  5.607033e-002 
38280000000  -3.687762e-002  5.690840e-002 
38290000000  -3.520679e-002  5.806971e-002 
38300000000  -3.370930e-002  5.740320e-002 
38310000000  -3.308444e-002  5.683134e-002 
38320000000  -3.296297e-002  5.736788e-002 
38330000000  -3.126066e-002  5.820251e-002 
38340000000  -3.074181e-002  5.679326e-002 
38350000000  -3.106618e-002  5.751641e-002 
38360000000  -3.024441e-002  5.832592e-002 
38370000000  -2.872769e-002  5.775037e-002 
38380000000  -2.824149e-002  5.694207e-002 
38390000000  -2.737131e-002  5.643487e-002 
38400000000  -2.675938e-002  5.613943e-002 
38410000000  -2.586546e-002  5.655367e-002 
38420000000  -2.478179e-002  5.615603e-002 
38430000000  -2.376267e-002  5.667152e-002 
38440000000  -2.141789e-002  5.616815e-002 
38450000000  -2.035941e-002  5.472198e-002 
38460000000  -2.015795e-002  5.387653e-002 
38470000000  -1.990801e-002  5.436979e-002 
38480000000  -1.718850e-002  5.393637e-002 
38490000000  -1.686946e-002  5.186269e-002 
38500000000  -1.703181e-002  5.122275e-002 
38510000000  -1.573794e-002  5.081771e-002 
38520000000  -1.555459e-002  4.866437e-002 
38530000000  -1.650185e-002  4.784075e-002 
38540000000  -1.681807e-002  4.854909e-002 
38550000000  -1.635522e-002  4.897965e-002 
38560000000  -1.597652e-002  4.891108e-002 
38570000000  -1.566756e-002  4.978979e-002 
38580000000  -1.549142e-002  5.010090e-002 
38590000000  -1.471651e-002  5.165645e-002 
38600000000  -1.267915e-002  5.274198e-002 
38610000000  -9.650950e-003  5.342892e-002 
38620000000  -8.238105e-003  5.357424e-002 
38630000000  -5.123341e-003  5.332450e-002 
38640000000  -3.282728e-003  5.120987e-002 
38650000000  -2.749275e-003  5.081856e-002 
38660000000  -1.386169e-003  4.952486e-002 
38670000000  -8.534186e-004  4.730302e-002 
38680000000  -1.791199e-003  4.669789e-002 
38690000000  -2.151294e-003  4.617870e-002 
38700000000  -2.648226e-003  4.499261e-002 
38710000000  -4.558797e-003  4.501312e-002 
38720000000  -4.217074e-003  4.665820e-002 
38730000000  -4.047370e-003  4.675794e-002 
38740000000  -3.832268e-003  4.799462e-002 
38750000000  -3.362193e-003  4.911573e-002 
38760000000  -1.689624e-003  4.892671e-002 
38770000000  -1.161641e-003  4.888694e-002 
38780000000  -3.124482e-004  4.798812e-002 
38790000000  -4.793783e-004  4.743863e-002 
38800000000  5.200801e-005  4.716311e-002 
38810000000  1.647502e-003  4.655038e-002 
38820000000  1.611815e-003  4.500708e-002 
38830000000  1.451256e-003  4.452951e-002 
38840000000  2.569104e-003  4.456939e-002 
38850000000  4.542570e-003  4.417433e-002 
38860000000  5.167363e-003  4.344631e-002 
38870000000  6.390571e-003  4.419353e-002 
38880000000  8.904818e-003  4.326834e-002 
38890000000  1.084391e-002  4.080320e-002 
38900000000  1.093565e-002  3.836731e-002 
38910000000  1.159824e-002  3.669017e-002 
38920000000  1.150286e-002  3.400562e-002 
38930000000  1.091331e-002  3.229909e-002 
38940000000  1.057828e-002  3.128893e-002 
38950000000  1.075624e-002  3.044603e-002 
38960000000  1.097492e-002  3.026511e-002 
38970000000  1.186705e-002  3.008733e-002 
38980000000  1.286499e-002  2.988796e-002 
38990000000  1.330812e-002  2.967437e-002 
39000000000  1.454644e-002  2.937213e-002 
39010000000  1.593820e-002  2.875973e-002 
39020000000  1.824395e-002  2.754889e-002 
39030000000  1.986041e-002  2.520947e-002 
39040000000  2.036338e-002  2.285840e-002 
39050000000  2.100751e-002  2.082348e-002 
39060000000  2.230710e-002  1.965170e-002 
39070000000  2.333993e-002  1.724664e-002 
39080000000  2.317233e-002  1.630368e-002 
39090000000  2.457044e-002  1.599631e-002 
39100000000  2.597115e-002  1.367667e-002 
39110000000  2.577638e-002  1.134982e-002 
39120000000  2.522670e-002  1.064044e-002 
39130000000  2.603893e-002  8.722796e-003 
39140000000  2.591277e-002  5.966384e-003 
39150000000  2.503780e-002  4.678233e-003 
39160000000  2.526910e-002  2.462054e-003 
39170000000  2.580101e-002  8.540071e-004 
39180000000  2.426752e-002  -1.368542e-003 
39190000000  2.323672e-002  -1.170585e-003 
39200000000  2.329308e-002  -9.610406e-004 
39210000000  2.396772e-002  -2.011089e-003 
39220000000  2.400862e-002  -3.915136e-003 
39230000000  2.275838e-002  -4.123054e-003 
39240000000  2.316029e-002  -4.535503e-003 
39250000000  2.415081e-002  -6.570806e-003 
39260000000  2.272845e-002  -9.446378e-003 
39270000000  2.168118e-002  -8.535260e-003 
39280000000  2.352990e-002  -1.015139e-002 
39290000000  2.312996e-002  -1.289877e-002 
39300000000  2.125493e-002  -1.292958e-002 
39310000000  2.155987e-002  -1.247550e-002 
39320000000  2.104515e-002  -1.294158e-002 
39330000000  1.905696e-002  -1.294776e-002 
39340000000  1.899153e-002  -1.148314e-002 
39350000000  1.805870e-002  -1.282303e-002 
39360000000  1.593895e-002  -1.419526e-002 
